09:04:24.010 [main] INFO  tools.SerialCommTools - 发现串口，串口号 COM1
09:04:24.015 [main] INFO  tools.SerialCommTools - 发现串口，串口号 COM6
09:04:26.312 [AWT-EventQueue-0] INFO  tools.SerialCommTools - 发现串口，串口号 COM1
09:04:26.313 [AWT-EventQueue-0] INFO  tools.SerialCommTools - 发现串口，串口号 COM6
09:04:35.391 [AWT-EventQueue-0] INFO  tools.SerialCommTools - 打开串口成功，串口号 COM6 波特率 38400 数据位 88 停止位 1 校验位 无
09:04:36.616 [AWT-EventQueue-0] INFO  tools.SerialCommTools - //./COM6 发送数据成功 02 03 00 01 00 01 D5 F9 
09:04:36.648 [Thread-3] INFO  Application.MainFrame - 收到数据 02 03 04 00 00 1C 45 
09:04:37.636 [AWT-EventQueue-0] INFO  tools.SerialCommTools - //./COM6 发送数据成功 02 03 00 02 00 01 25 F9 
09:04:37.668 [Thread-3] INFO  Application.MainFrame - 收到数据 02 03 04 00 01 DD 85 
09:04:38.854 [AWT-EventQueue-0] INFO  tools.SerialCommTools - //./COM6 发送数据成功 02 03 00 03 00 02 34 38 
09:04:38.883 [Thread-3] INFO  Application.MainFrame - 收到数据 02 03 06 60 13 ED D3 53 FB 
10:32:41.325 [main] INFO  tools.SerialCommTools - 发现串口，串口号 COM1
10:32:41.330 [main] INFO  tools.SerialCommTools - 发现串口，串口号 COM6
10:32:43.068 [AWT-EventQueue-0] INFO  tools.SerialCommTools - 发现串口，串口号 COM1
10:32:43.069 [AWT-EventQueue-0] INFO  tools.SerialCommTools - 发现串口，串口号 COM6
10:32:44.382 [AWT-EventQueue-0] INFO  tools.SerialCommTools - 打开串口成功，串口号 COM6 波特率 9600 数据位 88 停止位 1 校验位 无
10:32:45.813 [AWT-EventQueue-0] INFO  tools.SerialCommTools - //./COM6 发送数据成功 02 03 00 01 00 01 D5 F9 
10:32:52.234 [AWT-EventQueue-0] INFO  tools.SerialCommTools - //./COM6 发送数据成功 02 03 00 01 00 01 D5 F9 
10:32:53.679 [AWT-EventQueue-0] INFO  tools.SerialCommTools - //./COM6 发送数据成功 02 03 00 01 00 01 D5 F9 
10:32:55.147 [AWT-EventQueue-0] INFO  tools.SerialCommTools - //./COM6 发送数据成功 02 03 00 01 00 01 D5 F9 
10:33:11.016 [AWT-EventQueue-0] INFO  tools.SerialCommTools - //./COM6 发送数据成功 02 03 00 01 00 01 D5 F9 
10:33:11.913 [AWT-EventQueue-0] INFO  tools.SerialCommTools - //./COM6 发送数据成功 02 03 00 02 00 01 25 F9 
10:33:13.378 [AWT-EventQueue-0] INFO  tools.SerialCommTools - //./COM6 发送数据成功 02 03 00 03 00 02 34 38 
10:33:15.115 [AWT-EventQueue-0] INFO  tools.SerialCommTools - //./COM6 发送数据成功 02 03 00 03 00 02 34 38 
10:34:19.118 [Thread-3] INFO  Application.MainFrame - 收到数据 00 
10:34:23.562 [Thread-3] ERROR tools.SerialCommTools - 与串口设备通讯中断
10:34:23.583 [Thread-3] INFO  Application.MainFrame - 收到数据 00 00 00 00 00 00 00 
10:34:23.583 [Thread-3] ERROR tools.CRCTools - 数据校验失败, crcReceive = 0, crcCal = 2400
10:34:23.583 [Thread-3] ERROR Application.MainFrame - CRC 校验失败
10:34:23.623 [Thread-3] INFO  Application.MainFrame - 收到数据 00 
10:34:24.156 [Thread-3] ERROR tools.SerialCommTools - 与串口设备通讯中断
10:34:24.676 [Thread-3] ERROR tools.SerialCommTools - 与串口设备通讯中断
10:34:24.696 [Thread-3] INFO  Application.MainFrame - 收到数据 00 00 
10:34:24.696 [Thread-3] ERROR tools.CRCTools - 数据校验失败, crcReceive = 0, crcCal = FFFF
10:34:24.696 [Thread-3] ERROR Application.MainFrame - CRC 校验失败
10:34:25.425 [Thread-3] ERROR tools.SerialCommTools - 与串口设备通讯中断
10:34:26.416 [AWT-EventQueue-0] INFO  tools.SerialCommTools - //./COM6 发送数据成功 02 03 00 01 00 01 D5 F9 
10:34:28.597 [AWT-EventQueue-0] INFO  tools.SerialCommTools - //./COM6 发送数据成功 02 03 00 01 00 01 D5 F9 
10:34:41.337 [AWT-EventQueue-0] INFO  tools.SerialCommTools - //./COM6 发送数据成功 02 03 00 01 00 01 D5 F9 
10:34:44.784 [Thread-3] INFO  Application.MainFrame - 收到数据 00 
10:34:56.545 [Thread-3] ERROR tools.SerialCommTools - 与串口设备通讯中断
10:34:56.565 [Thread-3] INFO  Application.MainFrame - 收到数据 00 00 00 00 00 00 
10:34:56.565 [Thread-3] ERROR tools.CRCTools - 数据校验失败, crcReceive = 0, crcCal = 24
10:34:56.565 [Thread-3] ERROR Application.MainFrame - CRC 校验失败
10:34:57.140 [Thread-3] ERROR tools.SerialCommTools - 与串口设备通讯中断
10:34:57.388 [Thread-3] INFO  Application.MainFrame - 收到数据 00 
10:34:58.590 [Thread-3] ERROR tools.SerialCommTools - 与串口设备通讯中断
10:34:59.189 [Thread-3] INFO  Application.MainFrame - 收到数据 00 
10:35:00.243 [Thread-3] ERROR tools.SerialCommTools - 与串口设备通讯中断
10:35:00.989 [Thread-3] INFO  Application.MainFrame - 收到数据 00 
10:35:02.137 [Thread-3] ERROR tools.SerialCommTools - 与串口设备通讯中断
10:35:02.974 [AWT-EventQueue-0] INFO  tools.SerialCommTools - 关闭串口 //./COM6 成功
10:35:06.434 [AWT-EventQueue-0] INFO  tools.SerialCommTools - 打开串口成功，串口号 COM6 波特率 38400 数据位 88 停止位 1 校验位 无
10:35:07.671 [AWT-EventQueue-0] INFO  tools.SerialCommTools - //./COM6 发送数据成功 02 03 00 01 00 01 D5 F9 
10:35:07.709 [Thread-4] INFO  Application.MainFrame - 收到数据 02 03 04 00 00 1C 45 
10:35:09.420 [AWT-EventQueue-0] INFO  tools.SerialCommTools - //./COM6 发送数据成功 02 03 00 02 00 01 25 F9 
10:35:09.467 [Thread-4] INFO  Application.MainFrame - 收到数据 02 03 04 00 01 DD 85 
10:35:11.409 [AWT-EventQueue-0] INFO  tools.SerialCommTools - //./COM6 发送数据成功 02 03 00 02 00 01 25 F9 
10:35:11.464 [Thread-4] INFO  Application.MainFrame - 收到数据 02 03 04 00 01 DD 85 
10:35:12.757 [AWT-EventQueue-0] INFO  tools.SerialCommTools - //./COM6 发送数据成功 02 03 00 03 00 02 34 38 
10:35:12.806 [Thread-4] INFO  Application.MainFrame - 收到数据 02 03 06 60 13 ED D3 53 FB 
10:35:18.797 [AWT-EventQueue-0] INFO  tools.SerialCommTools - //./COM6 发送数据成功 02 03 00 01 00 01 D5 F9 
10:35:18.845 [Thread-4] INFO  Application.MainFrame - 收到数据 02 03 04 00 00 1C 45 
10:35:19.653 [AWT-EventQueue-0] INFO  tools.SerialCommTools - //./COM6 发送数据成功 02 03 00 02 00 01 25 F9 
10:35:19.692 [Thread-4] INFO  Application.MainFrame - 收到数据 02 03 04 00 01 DD 85 
10:35:20.654 [AWT-EventQueue-0] INFO  tools.SerialCommTools - //./COM6 发送数据成功 02 03 00 03 00 02 34 38 
10:35:20.698 [Thread-4] INFO  Application.MainFrame - 收到数据 02 03 06 60 13 ED D3 53 FB 
10:36:13.494 [AWT-EventQueue-0] INFO  tools.SerialCommTools - //./COM6 发送数据成功 02 03 00 01 00 01 D5 F9 
10:36:13.534 [Thread-4] INFO  Application.MainFrame - 收到数据 02 03 04 00 00 1C 45 
10:36:14.590 [AWT-EventQueue-0] INFO  tools.SerialCommTools - //./COM6 发送数据成功 02 03 00 02 00 01 25 F9 
10:36:14.637 [Thread-4] INFO  Application.MainFrame - 收到数据 02 03 04 00 01 DD 85 
10:36:15.676 [AWT-EventQueue-0] INFO  tools.SerialCommTools - //./COM6 发送数据成功 02 03 00 03 00 02 34 38 
10:36:15.724 [Thread-4] INFO  Application.MainFrame - 收到数据 02 03 06 60 13 ED D3 53 FB 
12:02:01.968 [AWT-EventQueue-0] INFO  tools.SerialCommTools - //./COM6 发送数据成功 01 03 00 01 00 01 D5 CA 
12:02:03.458 [AWT-EventQueue-0] INFO  tools.SerialCommTools - //./COM6 发送数据成功 01 03 00 01 00 01 D5 CA 
12:02:04.852 [AWT-EventQueue-0] INFO  tools.SerialCommTools - //./COM6 发送数据成功 01 03 00 01 00 01 D5 CA 
12:02:05.671 [AWT-EventQueue-0] INFO  tools.SerialCommTools - //./COM6 发送数据成功 01 03 00 01 00 01 D5 CA 
12:02:06.708 [AWT-EventQueue-0] INFO  tools.SerialCommTools - //./COM6 发送数据成功 01 03 00 01 00 01 D5 CA 
12:02:07.793 [AWT-EventQueue-0] INFO  tools.SerialCommTools - //./COM6 发送数据成功 01 03 00 02 00 01 25 CA 
12:02:08.848 [AWT-EventQueue-0] INFO  tools.SerialCommTools - //./COM6 发送数据成功 AA AA AA AA 
12:02:09.970 [AWT-EventQueue-0] INFO  tools.SerialCommTools - //./COM6 发送数据成功 01 03 00 01 00 01 D5 CA 
12:02:10.011 [Thread-4] INFO  Application.MainFrame - 收到数据 01 03 04 01 D6 D8 4B 
12:02:12.975 [AWT-EventQueue-0] INFO  tools.SerialCommTools - //./COM6 发送数据成功 01 03 00 02 00 01 25 CA 
12:02:13.015 [Thread-4] INFO  Application.MainFrame - 收到数据 01 03 04 01 D8 59 8F 
12:02:13.592 [AWT-EventQueue-0] INFO  tools.SerialCommTools - //./COM6 发送数据成功 01 03 00 03 00 01 74 0A 
12:02:13.622 [Thread-4] INFO  Application.MainFrame - 收到数据 01 03 04 11 94 55 BA 
12:02:14.108 [AWT-EventQueue-0] INFO  tools.SerialCommTools - //./COM6 发送数据成功 01 03 00 05 00 01 94 0B 
12:02:14.149 [Thread-4] INFO  Application.MainFrame - 收到数据 01 03 04 00 06 D8 47 
12:02:14.852 [AWT-EventQueue-0] INFO  tools.SerialCommTools - //./COM6 发送数据成功 01 03 00 06 00 01 64 0B 
12:02:14.884 [Thread-4] INFO  Application.MainFrame - 收到数据 01 03 04 00 00 58 45 
12:02:16.977 [AWT-EventQueue-0] INFO  tools.SerialCommTools - //./COM6 发送数据成功 01 03 00 07 00 02 75 CA 
12:02:17.009 [Thread-4] INFO  Application.MainFrame - 收到数据 01 03 06 60 11 32 36 58 80 
12:02:40.294 [AWT-EventQueue-0] INFO  tools.SerialCommTools - //./COM6 发送数据成功 01 03 00 01 00 01 D5 CA 
12:02:40.335 [Thread-4] INFO  Application.MainFrame - 收到数据 01 03 04 01 D6 D8 4B 
12:02:41.442 [AWT-EventQueue-0] INFO  tools.SerialCommTools - //./COM6 发送数据成功 01 03 00 01 00 01 D5 CA 
12:02:41.470 [Thread-4] INFO  Application.MainFrame - 收到数据 01 03 04 01 D6 D8 4B 
12:02:42.514 [AWT-EventQueue-0] INFO  tools.SerialCommTools - //./COM6 发送数据成功 01 03 00 01 00 01 D5 CA 
12:02:42.540 [Thread-4] INFO  Application.MainFrame - 收到数据 01 03 04 01 D6 D8 4B 
12:02:43.759 [AWT-EventQueue-0] INFO  tools.SerialCommTools - //./COM6 发送数据成功 01 03 00 02 00 01 25 CA 
12:02:43.786 [Thread-4] INFO  Application.MainFrame - 收到数据 01 03 04 01 D8 59 8F 
12:02:44.627 [AWT-EventQueue-0] INFO  tools.SerialCommTools - //./COM6 发送数据成功 01 03 00 03 00 01 74 0A 
12:02:44.665 [Thread-4] INFO  Application.MainFrame - 收到数据 01 03 04 11 94 55 BA 
12:02:58.987 [AWT-EventQueue-0] INFO  tools.SerialCommTools - //./COM6 发送数据成功 01 03 00 01 00 01 D5 CA 
12:02:59.029 [Thread-4] INFO  Application.MainFrame - 收到数据 01 03 04 01 D6 D8 4B 
12:02:59.792 [AWT-EventQueue-0] INFO  tools.SerialCommTools - //./COM6 发送数据成功 01 03 00 02 00 01 25 CA 
12:02:59.828 [Thread-4] INFO  Application.MainFrame - 收到数据 01 03 04 01 D8 59 8F 
12:03:00.433 [AWT-EventQueue-0] INFO  tools.SerialCommTools - //./COM6 发送数据成功 01 03 00 03 00 01 74 0A 
12:03:00.467 [Thread-4] INFO  Application.MainFrame - 收到数据 01 03 04 11 94 55 BA 
12:03:01.080 [AWT-EventQueue-0] INFO  tools.SerialCommTools - //./COM6 发送数据成功 01 03 00 05 00 01 94 0B 
12:03:01.122 [Thread-4] INFO  Application.MainFrame - 收到数据 01 03 04 00 06 D8 47 
12:03:01.870 [AWT-EventQueue-0] INFO  tools.SerialCommTools - //./COM6 发送数据成功 01 03 00 06 00 01 64 0B 
12:03:01.905 [Thread-4] INFO  Application.MainFrame - 收到数据 01 03 04 00 00 58 45 
12:03:40.321 [AWT-EventQueue-0] INFO  tools.SerialCommTools - //./COM6 发送数据成功 01 03 00 01 00 01 D5 CA 
12:03:40.347 [Thread-4] INFO  Application.MainFrame - 收到数据 01 03 04 01 D6 D8 4B 
12:03:50.204 [AWT-EventQueue-0] INFO  tools.SerialCommTools - //./COM6 发送数据成功 01 05 00 01 02 03 DD 6B 
12:03:52.448 [AWT-EventQueue-0] INFO  tools.SerialCommTools - //./COM6 发送数据成功 01 03 00 01 00 01 D5 CA 
12:03:53.959 [Thread-4] INFO  Application.MainFrame - 收到数据 01 05 00 01 02 03 DD 6B 01 03 04 02 03 19 24 
12:03:53.959 [Thread-4] ERROR tools.CRCTools - 数据校验失败, crcReceive = 1924, crcCal = 3D24
12:03:53.959 [Thread-4] ERROR Application.MainFrame - CRC 校验失败
12:03:56.233 [AWT-EventQueue-0] INFO  tools.SerialCommTools - //./COM6 发送数据成功 01 03 00 01 00 01 D5 CA 
12:03:56.260 [Thread-4] INFO  Application.MainFrame - 收到数据 01 03 04 02 03 19 24 
12:03:57.711 [AWT-EventQueue-0] INFO  tools.SerialCommTools - //./COM6 发送数据成功 01 03 00 01 00 01 D5 CA 
12:03:57.747 [Thread-4] INFO  Application.MainFrame - 收到数据 01 03 04 02 03 19 24 
12:03:58.935 [AWT-EventQueue-0] INFO  tools.SerialCommTools - //./COM6 发送数据成功 01 03 00 01 00 01 D5 CA 
12:03:58.977 [Thread-4] INFO  Application.MainFrame - 收到数据 01 03 04 02 03 19 24 
12:04:01.073 [AWT-EventQueue-0] INFO  tools.SerialCommTools - //./COM6 发送数据成功 01 03 00 02 00 01 25 CA 
12:04:01.102 [Thread-4] INFO  Application.MainFrame - 收到数据 01 03 04 02 04 58 E6 
12:04:02.921 [AWT-EventQueue-0] INFO  tools.SerialCommTools - //./COM6 发送数据成功 01 03 00 03 00 01 74 0A 
12:04:02.955 [Thread-4] INFO  Application.MainFrame - 收到数据 01 03 04 11 94 55 BA 
12:04:04.386 [AWT-EventQueue-0] INFO  tools.SerialCommTools - //./COM6 发送数据成功 01 03 00 05 00 01 94 0B 
12:04:04.425 [Thread-4] INFO  Application.MainFrame - 收到数据 01 03 04 00 06 D8 47 
12:04:07.627 [AWT-EventQueue-0] INFO  tools.SerialCommTools - 关闭串口 //./COM6 成功
12:05:58.652 [AWT-EventQueue-0] INFO  tools.SerialCommTools - 打开串口成功，串口号 COM6 波特率 38400 数据位 88 停止位 1 校验位 无
12:05:59.907 [AWT-EventQueue-0] INFO  tools.SerialCommTools - //./COM6 发送数据成功 02 03 00 01 00 01 D5 F9 
12:05:59.943 [Thread-5] INFO  Application.MainFrame - 收到数据 02 03 04 00 00 1C 45 
12:06:00.700 [AWT-EventQueue-0] INFO  tools.SerialCommTools - //./COM6 发送数据成功 02 03 00 02 00 01 25 F9 
12:06:00.727 [Thread-5] INFO  Application.MainFrame - 收到数据 02 03 04 00 00 1C 45 
12:06:01.781 [AWT-EventQueue-0] INFO  tools.SerialCommTools - //./COM6 发送数据成功 02 03 00 02 00 01 25 F9 
12:06:01.814 [Thread-5] INFO  Application.MainFrame - 收到数据 02 03 04 00 00 1C 45 
12:06:03.224 [AWT-EventQueue-0] INFO  tools.SerialCommTools - //./COM6 发送数据成功 02 03 00 03 00 02 34 38 
12:06:03.252 [Thread-5] INFO  Application.MainFrame - 收到数据 02 03 06 60 13 ED D3 53 FB 
12:06:04.481 [Thread-1] INFO  tools.SerialCommTools - //./COM6 发送数据成功 02 03 00 01 00 01 D5 F9 
12:06:04.514 [Thread-5] INFO  Application.MainFrame - 收到数据 02 03 04 00 00 1C 45 
12:06:04.581 [Thread-1] INFO  tools.SerialCommTools - //./COM6 发送数据成功 02 03 00 01 00 01 D5 F9 
12:06:04.610 [Thread-5] INFO  Application.MainFrame - 收到数据 02 03 04 00 00 1C 45 
12:06:04.682 [Thread-1] INFO  tools.SerialCommTools - //./COM6 发送数据成功 02 03 00 01 00 01 D5 F9 
12:06:04.722 [Thread-5] INFO  Application.MainFrame - 收到数据 02 03 04 00 00 1C 45 
12:06:04.783 [Thread-1] INFO  tools.SerialCommTools - //./COM6 发送数据成功 02 03 00 01 00 01 D5 F9 
12:06:04.818 [Thread-5] INFO  Application.MainFrame - 收到数据 02 03 04 00 00 1C 45 
12:06:04.884 [Thread-1] INFO  tools.SerialCommTools - //./COM6 发送数据成功 02 03 00 01 00 01 D5 F9 
12:06:04.914 [Thread-5] INFO  Application.MainFrame - 收到数据 02 03 04 00 00 1C 45 
12:06:04.984 [Thread-1] INFO  tools.SerialCommTools - //./COM6 发送数据成功 02 03 00 01 00 01 D5 F9 
12:06:05.026 [Thread-5] INFO  Application.MainFrame - 收到数据 02 03 04 00 00 1C 45 
12:06:05.085 [Thread-1] INFO  tools.SerialCommTools - //./COM6 发送数据成功 02 03 00 01 00 01 D5 F9 
12:06:05.121 [Thread-5] INFO  Application.MainFrame - 收到数据 02 03 04 00 00 1C 45 
12:06:05.186 [Thread-1] INFO  tools.SerialCommTools - //./COM6 发送数据成功 02 03 00 01 00 01 D5 F9 
12:06:05.217 [Thread-5] INFO  Application.MainFrame - 收到数据 02 03 04 00 00 1C 45 
12:06:05.287 [Thread-1] INFO  tools.SerialCommTools - //./COM6 发送数据成功 02 03 00 01 00 01 D5 F9 
12:06:05.329 [Thread-5] INFO  Application.MainFrame - 收到数据 02 03 04 00 00 1C 45 
12:06:05.388 [Thread-1] INFO  tools.SerialCommTools - //./COM6 发送数据成功 02 03 00 01 00 01 D5 F9 
12:06:05.425 [Thread-5] INFO  Application.MainFrame - 收到数据 02 03 04 00 00 1C 45 
12:06:05.489 [Thread-1] INFO  tools.SerialCommTools - //./COM6 发送数据成功 02 03 00 01 00 01 D5 F9 
12:06:05.521 [Thread-5] INFO  Application.MainFrame - 收到数据 02 03 04 00 00 1C 45 
12:06:05.590 [Thread-1] INFO  tools.SerialCommTools - //./COM6 发送数据成功 02 03 00 01 00 01 D5 F9 
12:06:05.633 [Thread-5] INFO  Application.MainFrame - 收到数据 02 03 04 00 00 1C 45 
12:06:05.691 [Thread-1] INFO  tools.SerialCommTools - //./COM6 发送数据成功 02 03 00 01 00 01 D5 F9 
12:06:05.729 [Thread-5] INFO  Application.MainFrame - 收到数据 02 03 04 00 00 1C 45 
12:06:05.792 [Thread-1] INFO  tools.SerialCommTools - //./COM6 发送数据成功 02 03 00 01 00 01 D5 F9 
12:06:05.825 [Thread-5] INFO  Application.MainFrame - 收到数据 02 03 04 00 00 1C 45 
12:06:05.893 [Thread-1] INFO  tools.SerialCommTools - //./COM6 发送数据成功 02 03 00 01 00 01 D5 F9 
12:06:05.920 [Thread-5] INFO  Application.MainFrame - 收到数据 02 03 04 00 00 1C 45 
12:06:05.994 [Thread-1] INFO  tools.SerialCommTools - //./COM6 发送数据成功 02 03 00 01 00 01 D5 F9 
12:06:06.032 [Thread-5] INFO  Application.MainFrame - 收到数据 02 03 04 00 00 1C 45 
12:06:06.094 [Thread-1] INFO  tools.SerialCommTools - //./COM6 发送数据成功 02 03 00 01 00 01 D5 F9 
12:06:06.128 [Thread-5] INFO  Application.MainFrame - 收到数据 02 03 04 00 00 1C 45 
12:06:06.194 [Thread-1] INFO  tools.SerialCommTools - //./COM6 发送数据成功 02 03 00 01 00 01 D5 F9 
12:06:06.224 [Thread-5] INFO  Application.MainFrame - 收到数据 02 03 04 00 00 1C 45 
12:06:06.295 [Thread-1] INFO  tools.SerialCommTools - //./COM6 发送数据成功 02 03 00 01 00 01 D5 F9 
12:06:06.336 [Thread-5] INFO  Application.MainFrame - 收到数据 02 03 04 00 00 1C 45 
12:06:06.395 [Thread-1] INFO  tools.SerialCommTools - //./COM6 发送数据成功 02 03 00 01 00 01 D5 F9 
12:06:06.432 [Thread-5] INFO  Application.MainFrame - 收到数据 02 03 04 00 00 1C 45 
12:06:06.496 [Thread-1] INFO  tools.SerialCommTools - //./COM6 发送数据成功 02 03 00 01 00 01 D5 F9 
12:06:06.528 [Thread-5] INFO  Application.MainFrame - 收到数据 02 03 04 00 00 1C 45 
12:06:06.596 [Thread-1] INFO  tools.SerialCommTools - //./COM6 发送数据成功 02 03 00 01 00 01 D5 F9 
12:06:06.623 [Thread-5] INFO  Application.MainFrame - 收到数据 02 03 04 00 00 1C 45 
12:06:06.697 [Thread-1] INFO  tools.SerialCommTools - //./COM6 发送数据成功 02 03 00 01 00 01 D5 F9 
12:06:06.735 [Thread-5] INFO  Application.MainFrame - 收到数据 02 03 04 00 00 1C 45 
12:06:06.798 [Thread-1] INFO  tools.SerialCommTools - //./COM6 发送数据成功 02 03 00 01 00 01 D5 F9 
12:06:06.831 [Thread-5] INFO  Application.MainFrame - 收到数据 02 03 04 00 00 1C 45 
12:06:06.899 [Thread-1] INFO  tools.SerialCommTools - //./COM6 发送数据成功 02 03 00 01 00 01 D5 F9 
12:06:06.927 [Thread-5] INFO  Application.MainFrame - 收到数据 02 03 04 00 00 1C 45 
12:06:07.000 [Thread-1] INFO  tools.SerialCommTools - //./COM6 发送数据成功 02 03 00 01 00 01 D5 F9 
12:06:07.039 [Thread-5] INFO  Application.MainFrame - 收到数据 02 03 04 00 00 1C 45 
12:06:07.101 [Thread-1] INFO  tools.SerialCommTools - //./COM6 发送数据成功 02 03 00 01 00 01 D5 F9 
12:06:07.135 [Thread-5] INFO  Application.MainFrame - 收到数据 02 03 04 00 00 1C 45 
12:06:07.201 [Thread-1] INFO  tools.SerialCommTools - //./COM6 发送数据成功 02 03 00 01 00 01 D5 F9 
12:06:07.231 [Thread-5] INFO  Application.MainFrame - 收到数据 02 03 04 00 00 1C 45 
12:06:07.302 [Thread-1] INFO  tools.SerialCommTools - //./COM6 发送数据成功 02 03 00 01 00 01 D5 F9 
12:06:07.342 [Thread-5] INFO  Application.MainFrame - 收到数据 02 03 04 00 00 1C 45 
12:06:07.403 [Thread-1] INFO  tools.SerialCommTools - //./COM6 发送数据成功 02 03 00 01 00 01 D5 F9 
12:06:07.438 [Thread-5] INFO  Application.MainFrame - 收到数据 02 03 04 00 00 1C 45 
12:06:07.504 [Thread-1] INFO  tools.SerialCommTools - //./COM6 发送数据成功 02 03 00 01 00 01 D5 F9 
12:06:07.534 [Thread-5] INFO  Application.MainFrame - 收到数据 02 03 04 00 00 1C 45 
12:06:07.605 [Thread-1] INFO  tools.SerialCommTools - //./COM6 发送数据成功 02 03 00 01 00 01 D5 F9 
12:06:07.646 [Thread-5] INFO  Application.MainFrame - 收到数据 02 03 04 00 00 1C 45 
12:06:07.707 [Thread-1] INFO  tools.SerialCommTools - //./COM6 发送数据成功 02 03 00 01 00 01 D5 F9 
12:06:07.742 [Thread-5] INFO  Application.MainFrame - 收到数据 02 03 04 00 00 1C 45 
12:06:07.808 [Thread-1] INFO  tools.SerialCommTools - //./COM6 发送数据成功 02 03 00 01 00 01 D5 F9 
12:06:07.838 [Thread-5] INFO  Application.MainFrame - 收到数据 02 03 04 00 00 1C 45 
12:06:07.908 [Thread-1] INFO  tools.SerialCommTools - //./COM6 发送数据成功 02 03 00 01 00 01 D5 F9 
12:06:07.950 [Thread-5] INFO  Application.MainFrame - 收到数据 02 03 04 00 00 1C 45 
12:06:08.009 [Thread-1] INFO  tools.SerialCommTools - //./COM6 发送数据成功 02 03 00 01 00 01 D5 F9 
12:06:08.046 [Thread-5] INFO  Application.MainFrame - 收到数据 02 03 04 00 00 1C 45 
12:06:08.110 [Thread-1] INFO  tools.SerialCommTools - //./COM6 发送数据成功 02 03 00 01 00 01 D5 F9 
12:06:08.141 [Thread-5] INFO  Application.MainFrame - 收到数据 02 03 04 00 00 1C 45 
12:06:08.211 [Thread-1] INFO  tools.SerialCommTools - //./COM6 发送数据成功 02 03 00 01 00 01 D5 F9 
12:06:08.237 [Thread-5] INFO  Application.MainFrame - 收到数据 02 03 04 00 00 1C 45 
12:06:08.311 [Thread-1] INFO  tools.SerialCommTools - //./COM6 发送数据成功 02 03 00 01 00 01 D5 F9 
12:06:08.349 [Thread-5] INFO  Application.MainFrame - 收到数据 02 03 04 00 00 1C 45 
12:06:08.411 [Thread-1] INFO  tools.SerialCommTools - //./COM6 发送数据成功 02 03 00 01 00 01 D5 F9 
12:06:08.445 [Thread-5] INFO  Application.MainFrame - 收到数据 02 03 04 00 00 1C 45 
12:06:08.512 [Thread-1] INFO  tools.SerialCommTools - //./COM6 发送数据成功 02 03 00 01 00 01 D5 F9 
12:06:08.541 [Thread-5] INFO  Application.MainFrame - 收到数据 02 03 04 00 00 1C 45 
12:06:08.612 [Thread-1] INFO  tools.SerialCommTools - //./COM6 发送数据成功 02 03 00 01 00 01 D5 F9 
12:06:08.653 [Thread-5] INFO  Application.MainFrame - 收到数据 02 03 04 00 00 1C 45 
12:06:08.713 [Thread-1] INFO  tools.SerialCommTools - //./COM6 发送数据成功 02 03 00 01 00 01 D5 F9 
12:06:08.749 [Thread-5] INFO  Application.MainFrame - 收到数据 02 03 04 00 00 1C 45 
12:06:08.828 [Thread-1] ERROR tools.SerialCommTools - 发送数据失败 Input/output error in writeArray
12:06:08.839 [Thread-5] ERROR tools.SerialCommTools - IO 异常 No error in nativeavailable
12:06:08.883 [Thread-5] ERROR tools.SerialCommTools - IO 异常 No error in nativeavailable
12:06:08.926 [Thread-5] ERROR tools.SerialCommTools - IO 异常 No error in nativeavailable
12:06:08.969 [Thread-5] ERROR tools.SerialCommTools - IO 异常 No error in nativeavailable
12:06:09.012 [Thread-5] ERROR tools.SerialCommTools - IO 异常 No error in nativeavailable
12:06:09.029 [Thread-1] ERROR tools.SerialCommTools - 发送数据失败 Input/output error in writeArray
12:06:09.055 [Thread-5] ERROR tools.SerialCommTools - IO 异常 No error in nativeavailable
12:06:09.098 [Thread-5] ERROR tools.SerialCommTools - IO 异常 No error in nativeavailable
12:06:09.142 [Thread-5] ERROR tools.SerialCommTools - IO 异常 No error in nativeavailable
12:06:09.185 [Thread-5] ERROR tools.SerialCommTools - IO 异常 No error in nativeavailable
12:06:09.228 [Thread-5] ERROR tools.SerialCommTools - IO 异常 No error in nativeavailable
12:06:09.230 [Thread-1] ERROR tools.SerialCommTools - 发送数据失败 Input/output error in writeArray
12:06:09.271 [Thread-5] ERROR tools.SerialCommTools - IO 异常 No error in nativeavailable
12:06:09.314 [Thread-5] ERROR tools.SerialCommTools - IO 异常 No error in nativeavailable
12:06:09.358 [Thread-5] ERROR tools.SerialCommTools - IO 异常 No error in nativeavailable
12:06:09.401 [Thread-5] ERROR tools.SerialCommTools - IO 异常 No error in nativeavailable
12:06:09.431 [Thread-1] ERROR tools.SerialCommTools - 发送数据失败 Input/output error in writeArray
12:06:09.444 [Thread-5] ERROR tools.SerialCommTools - IO 异常 No error in nativeavailable
12:06:09.487 [Thread-5] ERROR tools.SerialCommTools - IO 异常 No error in nativeavailable
12:06:09.530 [Thread-5] ERROR tools.SerialCommTools - IO 异常 No error in nativeavailable
12:06:09.573 [Thread-5] ERROR tools.SerialCommTools - IO 异常 No error in nativeavailable
12:06:09.616 [Thread-5] ERROR tools.SerialCommTools - IO 异常 No error in nativeavailable
12:06:09.632 [Thread-1] ERROR tools.SerialCommTools - 发送数据失败 Input/output error in writeArray
12:06:09.659 [Thread-5] ERROR tools.SerialCommTools - IO 异常 No error in nativeavailable
12:06:09.702 [Thread-5] ERROR tools.SerialCommTools - IO 异常 No error in nativeavailable
12:06:09.745 [Thread-5] ERROR tools.SerialCommTools - IO 异常 No error in nativeavailable
12:06:09.788 [Thread-5] ERROR tools.SerialCommTools - IO 异常 No error in nativeavailable
12:06:09.831 [Thread-5] ERROR tools.SerialCommTools - IO 异常 No error in nativeavailable
12:06:09.833 [Thread-1] ERROR tools.SerialCommTools - 发送数据失败 Input/output error in writeArray
12:06:09.874 [Thread-5] ERROR tools.SerialCommTools - IO 异常 No error in nativeavailable
12:06:09.917 [Thread-5] ERROR tools.SerialCommTools - IO 异常 No error in nativeavailable
12:06:09.961 [Thread-5] ERROR tools.SerialCommTools - IO 异常 No error in nativeavailable
12:06:10.004 [Thread-5] ERROR tools.SerialCommTools - IO 异常 No error in nativeavailable
12:06:10.034 [Thread-1] ERROR tools.SerialCommTools - 发送数据失败 Input/output error in writeArray
12:06:10.047 [Thread-5] ERROR tools.SerialCommTools - IO 异常 No error in nativeavailable
12:06:10.090 [Thread-5] ERROR tools.SerialCommTools - IO 异常 No error in nativeavailable
12:06:10.133 [Thread-5] ERROR tools.SerialCommTools - IO 异常 No error in nativeavailable
12:06:10.176 [Thread-5] ERROR tools.SerialCommTools - IO 异常 No error in nativeavailable
12:06:10.219 [Thread-5] ERROR tools.SerialCommTools - IO 异常 No error in nativeavailable
12:06:10.235 [Thread-1] ERROR tools.SerialCommTools - 发送数据失败 Input/output error in writeArray
12:06:10.262 [Thread-5] ERROR tools.SerialCommTools - IO 异常 No error in nativeavailable
12:06:10.305 [Thread-5] ERROR tools.SerialCommTools - IO 异常 No error in nativeavailable
12:06:10.348 [Thread-5] ERROR tools.SerialCommTools - IO 异常 No error in nativeavailable
12:06:10.391 [Thread-5] ERROR tools.SerialCommTools - IO 异常 No error in nativeavailable
12:06:10.434 [Thread-5] ERROR tools.SerialCommTools - IO 异常 No error in nativeavailable
12:06:10.436 [Thread-1] ERROR tools.SerialCommTools - 发送数据失败 Input/output error in writeArray
12:06:10.477 [Thread-5] ERROR tools.SerialCommTools - IO 异常 No error in nativeavailable
12:06:10.520 [Thread-5] ERROR tools.SerialCommTools - IO 异常 No error in nativeavailable
12:06:10.563 [Thread-5] ERROR tools.SerialCommTools - IO 异常 No error in nativeavailable
12:06:10.606 [Thread-5] ERROR tools.SerialCommTools - IO 异常 No error in nativeavailable
12:06:10.637 [Thread-1] ERROR tools.SerialCommTools - 发送数据失败 Input/output error in writeArray
12:06:10.649 [Thread-5] ERROR tools.SerialCommTools - IO 异常 No error in nativeavailable
12:06:10.692 [Thread-5] ERROR tools.SerialCommTools - IO 异常 No error in nativeavailable
12:06:10.735 [Thread-5] ERROR tools.SerialCommTools - IO 异常 No error in nativeavailable
